ДАГЭНЕРГО ДЭС ВЛ-Дербентская,522,1999
8,8A,0D
1,Ua_330 kV_ВЛ-330-Дерб.,A,330 kV   ВЛ-330-Дерб.,kV,0.00023570,0,0,-512,512,3300.0000,1,S
2,Ub_330 kV_ВЛ-330-Дерб.,B,330 kV   ВЛ-330-Дерб.,kV,0.00023702,0,121,-512,512,3300.0000,1,S
3,Uc_330 kV_ВЛ-330-Дерб.,C,330 kV   ВЛ-330-Дерб.,kV,0.00023570,0,247,-512,512,3300.0000,1,S
4,3U0_330 kV_ВЛ-330-Дерб.,,330 kV   ВЛ-330-Дерб.,kV,0.00050810,0,376,-512,512,1907.5000,1,S
5,Ia_330 kV_ВЛ-330-Дерб.,A,330 kV   ВЛ-330-Дерб.,kA,0.00000817,0,681,-512,512,1000.0000,1,S
6,Ib_330 kV_ВЛ-330-Дерб.,B,330 kV   ВЛ-330-Дерб.,kA,0.00000817,0,985,-512,512,1000.0000,1,S
7,Ic_330 kV_ВЛ-330-Дерб.,C,330 kV   ВЛ-330-Дерб.,kA,0.00000808,0,936,-512,512,1000.0000,1,S
8,3I0_330 kV_ВЛ-330-Дерб.,,330 kV   ВЛ-330-Дерб.,kA,0.00000813,0,1145,-512,512,1000.0000,1,S
50
1
500,4056
02/07/2018,23:52:14.000000
02/07/2018,23:52:14.000000
ASCII
1
0000000001,0000000000,-58,-282,323,-3,29,-15,-15,0
0000000002,0000001999,164,-362,176,2,20,4,-26,1
0000000003,0000003998,308,-295,-46,2,11,17,-25,0
0000000004,0000005997,359,-125,-235,1,-10,29,-16,0
0000000005,0000007996,253,117,-354,2,-23,23,3,1
0000000006,0000009995,57,285,-323,3,-28,13,16,1
0000000007,0000011994,-162,362,-176,-1,-21,-7,29,1
0000000008,0000013993,-310,296,48,-2,-10,-18,26,1
0000000009,0000015992,-360,127,234,0,11,-30,16,0
0000000010,0000017991,-252,-116,354,-1,23,-23,-1,1
0000000011,0000019990,-58,-283,324,-3,29,-14,-14,0
0000000012,0000021989,162,-362,176,2,20,6,-25,0
0000000013,0000023988,308,-295,-47,2,11,17,-25,0
0000000014,0000025987,360,-124,-235,1,-10,29,-15,1
0000000015,0000027986,253,117,-353,1,-22,22,3,1
0000000016,0000029985,58,284,-324,3,-29,13,16,1
0000000017,0000031984,-161,363,-176,-2,-22,-7,29,1
0000000018,0000033983,-310,297,47,-2,-10,-18,26,1
0000000019,0000035982,-360,126,234,0,11,-30,18,0
0000000020,0000037981,-253,-116,354,-1,22,-24,-2,0
0000000021,0000039980,-59,-282,323,-3,29,-14,-15,0
0000000022,0000041979,162,-362,176,2,21,6,-26,0
0000000023,0000043978,308,-295,-46,3,10,17,-25,0
0000000024,0000045977,359,-125,-234,1,-10,29,-16,0
0000000025,0000047976,254,117,-353,1,-22,23,3,0
0000000026,0000049975,58,284,-324,3,-28,13,16,1
0000000027,0000051974,-162,363,-176,-1,-21,-6,28,1
0000000028,0000053973,-311,297,47,-2,-10,-18,26,0
0000000029,0000055972,-360,127,234,0,10,-31,17,0
0000000030,0000057971,-253,-116,354,-1,22,-24,-3,0
0000000031,0000059970,-59,-282,325,-3,30,-14,-14,0
0000000032,0000061969,163,-362,176,2,20,6,-26,-1
0000000033,0000063968,308,-296,-46,2,10,17,-25,0
0000000034,0000065967,360,-126,-235,1,-12,29,-16,0
0000000035,0000067966,253,116,-354,1,-24,21,4,1
0000000036,0000069965,58,284,-324,3,-28,13,16,1
0000000037,0000071964,-161,363,-176,-1,-21,-6,30,1
0000000038,0000073963,-311,297,47,-2,-10,-18,26,0
0000000039,0000075962,-360,128,234,0,11,-30,17,0
0000000040,0000077961,-253,-116,354,-1,22,-24,-2,0
0000000041,0000079960,-59,-282,324,-3,29,-15,-15,0
0000000042,0000081959,162,-362,177,0,20,5,-27,0
0000000043,0000083958,308,-295,-45,2,10,17,-25,1
0000000044,0000085957,360,-125,-234,1,-10,30,-15,1
0000000045,0000087956,254,117,-354,1,-23,24,3,1
0000000046,0000089955,59,284,-325,3,-28,14,17,0
0000000047,0000091954,-162,363,-177,-1,-21,-6,29,1
0000000048,0000093953,-310,297,47,-2,-10,-18,26,-1
0000000049,0000095952,-360,127,233,0,11,-30,17,0
0000000050,0000097951,-253,-116,353,-1,22,-24,-2,0
0000000051,0000099950,-60,-282,325,-3,29,-14,-15,0
0000000052,0000101949,162,-362,177,1,21,5,-27,0
0000000053,0000103948,306,-297,-45,3,10,17,-25,1
0000000054,0000105947,360,-126,-235,1,-10,29,-15,0
0000000055,0000107946,254,116,-353,1,-22,23,3,1
0000000056,0000109945,58,285,-323,3,-28,13,17,1
0000000057,0000111944,-162,363,-177,-1,-21,-7,28,0
0000000058,0000113943,-309,297,47,-2,-10,-18,26,0
0000000059,0000115942,-360,128,234,0,9,-31,18,1
0000000060,0000117941,-254,-116,354,-1,22,-24,-2,1
0000000061,0000119940,-59,-282,324,-3,29,-15,-14,0
0000000062,0000121939,163,-362,176,1,20,6,-25,0
0000000063,0000123938,307,-296,-45,2,10,17,-25,0
0000000064,0000125937,360,-125,-234,1,-10,29,-16,1
0000000065,0000127936,254,116,-354,1,-22,23,4,0
0000000066,0000129935,58,284,-324,3,-28,13,16,1
0000000067,0000131934,-161,362,-177,-2,-21,-6,28,1
0000000068,0000133933,-310,297,47,-2,-10,-18,26,1
0000000069,0000135932,-361,120,239,20,9,-17,11,4
0000000070,0000137931,-119,-111,217,5,-60,-10,93,5
0000000071,0000139930,-54,-191,271,-13,-67,-72,145,4
0000000072,0000141929,104,-295,163,1,-8,-121,137,3
0000000073,0000143928,251,-239,-21,0,47,-148,108,1
0000000074,0000145927,244,-115,-138,5,117,-131,14,0
0000000075,0000147926,222,54,-261,0,134,-64,-65,-1
0000000076,0000149925,55,202,-242,1,110,22,-124,-1
0000000077,0000151924,-91,264,-164,5,44,100,-129,0
0000000078,0000153923,-212,240,-5,1,-45,137,-79,1
0000000079,0000155922,-264,119,148,1,-107,119,1,2
0000000080,0000157921,-202,-48,242,-4,-134,57,85,3
0000000081,0000159920,-78,-187,256,-4,-100,-32,135,2
0000000082,0000161919,83,-265,168,-2,-29,-104,132,2
0000000083,0000163918,207,-244,19,-2,56,-135,78,1
0000000084,0000165917,255,-130,-132,1,122,-110,-13,-1
0000000085,0000167916,214,35,-244,3,140,-38,-99,-2
0000000086,0000169915,82,184,-256,4,105,52,-148,-2
0000000087,0000171914,-74,264,-177,3,29,123,-140,-1
0000000088,0000173913,-202,246,-23,1,-58,151,-82,0
0000000089,0000175912,-258,131,133,0,-122,123,6,1
0000000090,0000177911,-209,-36,239,-3,-145,54,90,2
0000000091,0000179910,-84,-178,254,-4,-106,-38,140,2
0000000092,0000181909,72,-258,175,-3,-31,-111,136,0
0000000093,0000183908,196,-242,27,-2,59,-142,78,0
0000000094,0000185907,251,-136,-124,2,126,-115,-16,-2
0000000095,0000187906,211,29,-235,3,145,-41,-105,-2
0000000096,0000189905,87,176,-255,4,108,52,-155,-2
0000000097,0000191904,-67,259,-179,4,27,126,-146,-1
0000000098,0000193903,-196,245,-29,1,-61,154,-84,0
0000000099,0000195902,-252,134,127,0,-127,125,9,2
0000000100,0000197901,-210,-31,235,-3,-148,51,94,3
0000000101,0000199900,-86,-175,252,-3,-109,-42,144,2
0000000102,0000201899,67,-255,176,-3,-31,-118,139,1
0000000103,0000203898,193,-241,31,-1,60,-148,80,0
0000000104,0000205897,248,-135,-122,2,128,-120,-15,-1
0000000105,0000207896,210,26,-231,5,146,-44,-105,-2
0000000106,0000209895,88,173,-252,4,109,51,-157,-2
0000000107,0000211894,-65,255,-178,3,28,126,-148,-1
0000000108,0000213893,-193,243,-29,1,-62,154,-84,1
0000000109,0000215892,-249,134,124,-1,-129,125,11,2
0000000110,0000217891,-211,-29,232,-3,-149,51,96,2
0000000111,0000219890,-87,-172,250,-4,-110,-44,146,2
0000000112,0000221889,65,-252,176,-3,-31,-121,141,1
0000000113,0000223888,191,-239,31,-2,60,-151,81,0
0000000114,0000225887,247,-135,-120,1,128,-123,-14,-1
0000000115,0000227886,212,24,-229,3,147,-46,-104,-2
0000000116,0000229885,89,171,-251,4,111,51,-157,-2
0000000117,0000231884,-63,252,-177,3,29,127,-148,-1
0000000118,0000233883,-191,242,-31,1,-62,157,-83,0
0000000119,0000235882,-248,135,121,-1,-129,126,9,2
0000000120,0000237881,-210,-27,230,-3,-149,51,97,2
0000000121,0000239880,-87,-172,248,-4,-111,-45,148,2
0000000122,0000241879,63,-250,176,-3,-31,-122,143,2
0000000123,0000243878,190,-240,33,-1,60,-153,84,1
0000000124,0000245877,246,-136,-118,3,127,-125,-13,-1
0000000125,0000247876,210,23,-227,3,148,-48,-103,-2
0000000126,0000249875,89,168,-250,4,111,49,-157,-2
0000000127,0000251874,-62,252,-177,3,30,125,-148,-1
0000000128,0000253873,-190,242,-32,1,-61,157,-85,0
0000000129,0000255872,-246,135,120,0,-129,126,10,2
0000000130,0000257871,-210,-25,229,-3,-150,51,98,3
0000000131,0000259870,-88,-168,248,-4,-112,-45,149,3
0000000132,0000261869,62,-248,176,-3,-32,-123,144,2
0000000133,0000263868,188,-240,35,-1,59,-154,85,0
0000000134,0000265867,244,-137,-117,1,128,-126,-10,-1
0000000135,0000267866,213,21,-227,3,148,-50,-101,-1
0000000136,0000269865,90,167,-249,3,112,48,-156,-1
0000000137,0000271864,-61,249,-177,4,31,126,-148,-1
0000000138,0000273863,-188,241,-34,2,-60,157,-87,0
0000000139,0000275862,-246,137,117,-1,-128,127,9,2
0000000140,0000277861,-211,-23,227,-3,-150,52,98,3
0000000141,0000279860,-90,-166,247,-4,-114,-45,149,3
0000000142,0000281859,60,-248,177,-4,-33,-124,145,2
0000000143,0000283858,187,-240,37,-1,58,-155,87,0
0000000144,0000285857,244,-138,-115,2,128,-127,-7,-1
0000000145,0000287856,212,20,-226,3,148,-51,-100,-2
0000000146,0000289855,91,164,-248,4,112,46,-156,-2
0000000147,0000291854,-58,249,-179,4,33,125,-148,-1
0000000148,0000293853,-187,241,-36,1,-59,157,-87,0
0000000149,0000295852,-245,138,115,-1,-128,127,8,2
0000000150,0000297851,-212,-22,225,-3,-150,53,96,2
0000000151,0000299850,-92,-165,248,-4,-113,-45,150,3
0000000152,0000301849,58,-247,179,-4,-34,-124,146,2
0000000153,0000303848,183,-240,39,-2,57,-156,87,0
0000000154,0000305847,244,-140,-115,1,126,-129,-8,-3
0000000155,0000307846,212,17,-225,3,148,-53,-99,-2
0000000156,0000309845,93,164,-250,4,113,46,-155,-1
0000000157,0000311844,-57,248,-180,4,33,123,-148,0
0000000158,0000313843,-185,241,-37,1,-58,157,-88,0
0000000159,0000315842,-245,140,114,-2,-129,128,7,2
0000000160,0000317841,-213,-19,225,-4,-150,54,97,1
0000000161,0000319840,-92,-163,247,-3,-113,-44,150,3
0000000162,0000321839,57,-246,179,-4,-34,-123,147,2
0000000163,0000323838,184,-240,40,-1,57,-157,89,1
0000000164,0000325837,243,-140,-112,2,128,-131,-6,-1
0000000165,0000327836,214,16,-224,4,149,-54,-98,-2
0000000166,0000329835,94,161,-248,3,114,44,-155,-2
0000000167,0000331834,-55,247,-181,4,35,124,-148,-1
0000000168,0000333833,-184,242,-39,1,-57,157,-89,1
0000000169,0000335832,-244,142,112,0,-128,129,6,2
0000000170,0000337831,-213,-17,224,-2,-151,55,96,3
0000000171,0000339830,-94,-161,248,-3,-114,-43,150,3
0000000172,0000341829,55,-245,181,-4,-35,-123,147,3
0000000173,0000343828,182,-241,42,-1,57,-157,91,1
0000000174,0000345827,243,-142,-110,1,127,-130,-3,-1
0000000175,0000347826,214,13,-222,3,149,-56,-96,-2
0000000176,0000349825,96,161,-248,4,115,43,-154,-2
0000000177,0000351824,-54,246,-181,4,37,123,-148,-2
0000000178,0000353823,-182,242,-41,2,-56,157,-90,1
0000000179,0000355822,-243,144,110,-1,-127,130,5,2
0000000180,0000357821,-214,-14,223,-3,-151,57,95,4
0000000181,0000359820,-96,-159,247,-3,-115,-42,151,3
0000000182,0000361819,53,-245,182,-4,-37,-122,149,2
0000000183,0000363818,181,-241,43,-2,55,-157,93,1
0000000184,0000365817,243,-144,-108,1,127,-132,-3,-1
0000000185,0000367816,216,11,-222,4,150,-57,-95,-1
0000000186,0000369815,97,159,-248,4,116,42,-153,-2
0000000187,0000371814,-51,245,-183,4,38,122,-148,-1
0000000188,0000373813,-181,241,-43,2,-55,157,-92,1
0000000189,0000375812,-242,146,108,0,-126,130,4,2
0000000190,0000377811,-215,-12,221,-2,-151,57,95,3
0000000191,0000379810,-97,-157,247,-4,-116,-41,151,3
0000000192,0000381809,51,-244,184,-4,-39,-122,149,3
0000000193,0000383808,179,-243,45,-2,54,-158,93,1
0000000194,0000385807,242,-146,-106,1,127,-132,-1,-1
0000000195,0000387806,216,9,-220,3,150,-59,-93,-2
0000000196,0000389805,100,157,-248,4,117,41,-153,-1
0000000197,0000391804,-50,245,-184,5,39,122,-149,-1
0000000198,0000393803,-179,243,-45,2,-54,158,-93,0
0000000199,0000395802,-243,148,105,0,-126,131,1,2
0000000200,0000397801,-216,-9,220,-3,-151,59,94,3
0000000201,0000399800,-100,-155,248,-3,-116,-40,151,3
0000000202,0000401799,49,-243,185,-4,-40,-122,149,2
0000000203,0000403798,178,-242,47,-1,53,-158,94,1
0000000204,0000405797,241,-148,-104,1,126,-134,0,-1
0000000205,0000407796,217,7,-219,3,150,-62,-92,-1
0000000206,0000409795,102,155,-249,4,117,39,-152,-2
0000000207,0000411794,-47,244,-186,4,40,121,-150,-1
0000000208,0000413793,-177,243,-48,0,-53,159,-94,-1
0000000209,0000415792,-242,150,103,0,-126,133,0,2
0000000210,0000417791,-217,-7,219,-3,-152,60,93,3
0000000211,0000419790,-103,-155,247,-3,-118,-40,152,3
0000000212,0000421789,46,-242,187,-4,-41,-122,151,2
0000000213,0000423788,175,-242,50,-2,52,-160,96,0
0000000214,0000425787,241,-150,-102,0,126,-135,1,-1
0000000215,0000427786,218,4,-217,3,151,-62,-91,-1
0000000216,0000429785,104,152,-248,4,119,38,-153,-2
0000000217,0000431784,-45,243,-188,4,41,121,-151,-1
0000000218,0000433783,-177,243,-50,2,-52,159,-96,0
0000000219,0000435782,-241,152,100,0,-125,134,0,1
0000000220,0000437781,-218,-5,216,-3,-153,62,92,2
0000000221,0000439780,-105,-150,247,-4,-120,-38,152,3
0000000222,0000441779,44,-242,188,-4,-42,-122,152,2
0000000223,0000443778,174,-243,52,-2,51,-160,98,1
0000000224,0000445777,240,-152,-98,1,125,-137,3,-1
0000000225,0000447776,219,2,-217,2,151,-64,-90,-2
0000000226,0000449775,106,150,-248,4,121,36,-153,-1
0000000227,0000451774,-42,241,-189,4,43,119,-151,-1
0000000228,0000453773,-174,243,-53,2,-51,159,-97,0
0000000229,0000455772,-240,155,98,0,-125,135,-2,2
0000000230,0000457771,-219,-2,217,-3,-153,64,91,4
0000000231,0000459770,-107,-147,248,-3,-120,-36,153,3
0000000232,0000461769,42,-240,189,-4,-45,-121,154,2
0000000233,0000463768,172,-243,56,-2,51,-159,101,1
0000000234,0000465767,239,-155,-96,1,125,-138,3,-1
0000000235,0000467766,220,-3,-214,3,152,-65,-90,-2
0000000236,0000469765,109,147,-247,3,121,36,-153,-2
0000000237,0000471764,-40,240,-192,4,44,120,-155,-1
0000000238,0000473763,-170,244,-55,2,-50,161,-99,1
0000000239,0000475762,-239,156,95,0,-126,137,-2,2
0000000240,0000477761,-220,1,214,-3,-154,65,91,3
0000000241,0000479760,-109,-145,247,-3,-122,-35,153,3
0000000242,0000481759,37,-238,192,-4,-45,-121,155,1
0000000243,0000483758,169,-244,60,-2,50,-162,102,1
0000000244,0000485757,238,-157,-93,0,125,-140,6,-1
0000000245,0000487756,222,-5,-212,3,154,-67,-90,-2
0000000246,0000489755,112,145,-248,4,123,33,-154,-2
0000000247,0000491754,-36,239,-193,6,47,119,-154,0
0000000248,0000493753,-168,245,-59,2,-49,160,-101,0
0000000249,0000495752,-238,160,91,0,-125,138,-4,2
0000000250,0000497751,-221,4,212,-3,-155,67,90,3
0000000251,0000499750,-112,-142,248,-3,-124,-35,154,3
0000000252,0000501749,34,-237,194,-4,-47,-120,156,2
0000000253,0000503748,167,-244,62,-2,49,-162,104,1
0000000254,0000505747,237,-159,-90,1,125,-141,9,-1
0000000255,0000507746,221,-9,-211,3,154,-70,-88,-2
0000000256,0000509745,113,143,-247,4,125,33,-154,-2
0000000257,0000511744,-34,238,-195,4,49,118,-155,-1
0000000258,0000513743,-166,245,-61,2,-47,162,-103,0
0000000259,0000515742,-238,163,89,-1,-124,139,-7,2
0000000260,0000517741,-222,7,210,-2,-156,69,89,4
0000000261,0000519740,-114,-138,247,-3,-125,-32,153,3
0000000262,0000521739,32,-236,195,-4,-49,-119,157,2
0000000263,0000523738,164,-244,64,-2,47,-162,105,1
0000000264,0000525737,237,-161,-88,-1,124,-142,10,-2
0000000265,0000527736,224,-11,-209,3,155,-71,-86,-2
0000000266,0000529735,117,139,-248,4,125,31,-153,-2
0000000267,0000531734,-31,237,-197,4,50,117,-156,-1
0000000268,0000533733,-165,245,-64,2,-46,161,-104,0
0000000269,0000535732,-237,165,86,0,-123,141,-8,2
0000000270,0000537731,-224,10,208,-2,-157,71,87,3
0000000271,0000539730,-117,-136,248,-3,-126,-31,154,3
0000000272,0000541729,30,-234,197,-3,-51,-118,158,2
0000000273,0000543728,162,-244,66,-2,45,-162,107,0
0000000274,0000545727,238,-164,-85,1,124,-143,12,-1
0000000275,0000547726,223,-14,-209,2,155,-73,-85,-2
0000000276,0000549725,119,137,-248,4,127,30,-152,-2
0000000277,0000551724,-29,236,-198,4,52,117,-157,-2
0000000278,0000553723,-162,245,-66,2,-44,161,-107,0
0000000279,0000555722,-237,167,83,-1,-122,142,-11,1
0000000280,0000557721,-223,12,208,-2,-156,73,86,3
0000000281,0000559720,-119,-134,247,-3,-128,-30,152,4
0000000282,0000561719,28,-233,199,-4,-52,-117,159,3
0000000283,0000563718,161,-246,69,-2,43,-163,110,1
0000000284,0000565717,236,-164,-82,1,122,-143,14,0
0000000285,0000567716,224,-16,-207,3,155,-75,-84,-2
0000000286,0000569715,121,134,-247,4,128,28,-151,-2
0000000287,0000571714,-26,235,-200,6,54,116,-157,-2
0000000288,0000573713,-160,246,-71,2,-43,162,-106,0
0000000289,0000575712,-236,169,81,-1,-121,143,-13,2
0000000290,0000577711,-225,15,206,-2,-157,74,84,2
0000000291,0000579710,-121,-131,247,-3,-127,-29,152,3
0000000292,0000581709,25,-232,200,-4,-54,-117,159,2
0000000293,0000583708,159,-246,71,-2,43,-163,111,1
0000000294,0000585707,235,-168,-79,0,121,-145,16,0
0000000295,0000587706,225,-19,-205,3,156,-77,-82,-1
0000000296,0000589705,122,132,-247,4,129,26,-151,-2
0000000297,0000591704,-24,234,-202,4,56,115,-159,-1
0000000298,0000593703,-158,246,-71,2,-41,162,-110,1
0000000299,0000595702,-235,171,78,-1,-120,144,-15,2
0000000300,0000597701,-225,18,204,-2,-157,76,83,2
0000000301,0000599700,-124,-129,247,-4,-129,-25,151,3
0000000302,0000601699,23,-231,202,-4,-56,-116,160,2
0000000303,0000603698,157,-246,74,-2,40,-163,112,1
0000000304,0000605697,234,-170,-77,0,120,-146,17,0
0000000305,0000607696,226,-22,-203,3,156,-78,-81,-2
0000000306,0000609695,126,130,-249,4,130,25,-151,-2
0000000307,0000611694,-22,233,-203,4,57,113,-159,-1
0000000308,0000613693,-156,247,-74,2,-40,162,-111,0
0000000309,0000615692,-236,173,76,-1,-119,145,-16,1
0000000310,0000617691,-226,21,203,-2,-157,78,82,1
0000000311,0000619690,-126,-127,247,-4,-132,-24,150,3
0000000312,0000621689,21,-230,203,-4,-58,-115,160,2
0000000313,0000623688,155,-249,77,-2,39,-164,113,2
0000000314,0000625687,233,-172,-75,0,119,-148,19,-1
0000000315,0000627686,227,-24,-201,3,156,-81,-80,-1
0000000316,0000629685,128,127,-247,3,131,23,-151,-2
0000000317,0000631684,-20,232,-205,4,58,113,-161,-1
0000000318,0000633683,-154,247,-77,2,-38,162,-112,0
0000000319,0000635682,-233,175,73,-1,-119,147,-18,2
0000000320,0000637681,-227,24,201,-2,-158,80,81,2
0000000321,0000639680,-129,-124,247,-4,-131,-22,150,3
0000000322,0000641679,18,-229,205,-4,-59,-113,162,2
0000000323,0000643678,153,-248,79,-2,38,-163,115,1
0000000324,0000645677,233,-174,-71,1,120,-149,21,0
0000000325,0000647676,228,-27,-201,3,156,-82,-80,-2
0000000326,0000649675,130,126,-247,4,132,21,-150,-2
0000000327,0000651674,-17,231,-207,4,60,112,-161,-3
0000000328,0000653673,-152,248,-78,2,-37,162,-114,0
0000000329,0000655672,-233,177,70,-1,-119,147,-20,1
0000000330,0000657671,-227,27,198,-2,-158,80,80,3
0000000331,0000659670,-130,-122,247,-5,-133,-21,150,3
0000000332,0000661669,14,-228,207,-4,-61,-112,163,2
0000000333,0000663668,151,-248,81,-3,36,-163,116,0
0000000334,0000665667,233,-176,-69,1,119,-149,23,0
0000000335,0000667666,228,-30,-197,3,157,-84,-77,-2
0000000336,0000669665,132,122,-247,4,133,20,-150,-2
0000000337,0000671664,-15,231,-208,5,63,111,-161,-1
0000000338,0000673663,-149,248,-81,2,-35,162,-116,0
0000000339,0000675662,-233,179,68,0,-118,148,-22,2
0000000340,0000677661,-228,29,198,-1,-158,83,78,3
0000000341,0000679660,-133,-119,247,-4,-134,-20,150,3
0000000342,0000681659,13,-227,208,-4,-63,-112,163,2
0000000343,0000683658,149,-248,84,-2,35,-163,119,1
0000000344,0000685657,232,-178,-68,1,117,-151,25,0
0000000345,0000687656,229,-32,-197,4,157,-85,-76,-1
0000000346,0000689655,134,120,-247,4,135,18,-148,-2
0000000347,0000691654,-12,230,-209,5,64,110,-162,-2
0000000348,0000693653,-148,249,-84,2,-34,163,-117,-1
0000000349,0000695652,-233,181,66,-1,-115,150,-24,1
0000000350,0000697651,-229,32,196,-2,-158,84,77,2
0000000351,0000699650,-135,-117,247,-5,-136,-18,150,4
0000000352,0000701649,11,-226,209,-4,-65,-111,164,4
0000000353,0000703648,147,-249,86,-2,33,-163,120,2
0000000354,0000705647,232,-180,-65,0,116,-152,27,0
0000000355,0000707646,231,-34,-195,2,157,-86,-74,-2
0000000356,0000709645,136,118,-246,4,136,17,-148,-1
0000000357,0000711644,-10,229,-210,5,66,109,-163,-1
0000000358,0000713643,-147,249,-86,3,-33,162,-118,0
0000000359,0000715642,-232,183,64,-1,-116,152,-25,1
0000000360,0000717641,-229,34,195,-1,-158,86,76,3
0000000361,0000719640,-135,-115,247,-5,-136,-16,150,3
0000000362,0000721639,9,-225,211,-2,-66,-110,165,4
0000000363,0000723638,146,-249,88,-2,32,-164,121,1
0000000364,0000725637,231,-182,-62,0,116,-152,28,0
0000000365,0000727636,230,-36,-193,3,157,-88,-74,-2
0000000366,0000729635,138,116,-247,4,136,15,-148,-3
