ДАГЭНЕРГО ДЭС ВЛ-Дербентская,522,1999
8,8A,0D
1,Ua_330 kV_ВЛ-330-Дерб.,A,330 kV   ВЛ-330-Дерб.,kV,0.00023570,0,0,-512,512,3300.0000,1,S
2,Ub_330 kV_ВЛ-330-Дерб.,B,330 kV   ВЛ-330-Дерб.,kV,0.00023518,0,71,-512,512,3300.0000,1,S
3,Uc_330 kV_ВЛ-330-Дерб.,C,330 kV   ВЛ-330-Дерб.,kV,0.00023570,0,222,-512,512,3300.0000,1,S
4,3U0_330 kV_ВЛ-330-Дерб.,,330 kV   ВЛ-330-Дерб.,kV,0.00016368,0,-3289,-512,512,3300.0000,1,S
5,Ia_330 kV_ВЛ-330-Дерб.,A,330 kV   ВЛ-330-Дерб.,kA,0.00000834,0,525,-512,512,1000.0000,1,S
6,Ib_330 kV_ВЛ-330-Дерб.,B,330 kV   ВЛ-330-Дерб.,kA,0.00000832,0,843,-512,512,1000.0000,1,S
7,Ic_330 kV_ВЛ-330-Дерб.,C,330 kV   ВЛ-330-Дерб.,kA,0.00000821,0,797,-512,512,1000.0000,1,S
8,3I0_330 kV_ВЛ-330-Дерб.,,330 kV   ВЛ-330-Дерб.,kA,0.00000825,0,1042,-512,512,1000.0000,1,S
50
1
500,4056
04/04/2004,16:34:58.000000
04/04/2004,16:34:58.000000
ASCII
1
0000000001,0000000000,-245,320,-42,-2,-69,72,0,3
0000000002,0000001999,-323,182,157,-3,-80,33,47,3
0000000003,0000003998,-287,-20,300,-2,-65,-18,77,2
0000000004,0000005997,-124,-211,322,-2,-21,-62,77,0
0000000005,0000007996,72,-319,224,0,28,-82,49,-1
0000000006,0000009995,245,-320,43,2,68,-73,1,-2
0000000007,0000011994,322,-181,-157,3,80,-34,-45,-2
0000000008,0000013993,287,20,-299,3,65,16,-76,-1
0000000009,0000015992,124,211,-323,1,21,60,-76,1
0000000010,0000017991,-71,319,-224,1,-28,81,-47,3
0000000011,0000019990,-245,321,-43,-2,-68,71,1,3
0000000012,0000021989,-323,183,156,-3,-80,33,47,3
0000000013,0000023988,-287,-20,299,-3,-66,-18,78,2
0000000014,0000025987,-124,-210,322,-1,-21,-62,78,0
0000000015,0000027986,71,-319,224,1,28,-81,48,-1
0000000016,0000029985,244,-321,43,2,69,-73,1,-2
0000000017,0000031984,322,-182,-156,3,80,-34,-45,-2
0000000018,0000033983,287,20,-299,2,65,17,-76,-1
0000000019,0000035982,125,211,-323,1,21,60,-76,1
0000000020,0000037981,-70,320,-225,0,-28,80,-47,3
0000000021,0000039980,-245,321,-44,-2,-68,71,0,3
0000000022,0000041979,-323,184,156,-3,-80,32,47,3
0000000023,0000043978,-287,-19,298,-2,-65,-18,78,2
0000000024,0000045977,-125,-210,322,-1,-22,-62,77,0
0000000025,0000047976,70,-319,224,0,28,-81,49,-2
0000000026,0000049975,244,-321,44,2,68,-72,1,-2
0000000027,0000051974,323,-183,-156,3,80,-33,-45,-2
0000000028,0000053973,287,19,-299,3,65,18,-77,-1
0000000029,0000055972,125,211,-323,1,21,61,-76,1
0000000030,0000057971,-70,320,-226,1,-28,82,-47,3
0000000031,0000059970,-244,321,-44,-3,-68,71,0,3
0000000032,0000061969,-323,184,155,-3,-80,32,47,3
0000000033,0000063968,-287,-18,298,-2,-65,-18,78,2
0000000034,0000065967,-126,-210,322,-1,-21,-62,78,0
0000000035,0000067966,70,-320,225,0,27,-81,49,-2
0000000036,0000069965,245,-321,45,2,68,-72,1,-2
0000000037,0000071964,321,-183,-155,4,80,-33,-45,-2
0000000038,0000073963,288,18,-299,2,65,17,-77,-1
0000000039,0000075962,126,211,-322,1,21,61,-76,1
0000000040,0000077961,-70,320,-226,0,-28,80,-47,3
0000000041,0000079960,-244,323,-44,-2,-68,72,0,4
0000000042,0000081959,-323,183,155,-4,-80,32,47,4
0000000043,0000083958,-288,-17,298,-2,-65,-19,79,3
0000000044,0000085957,-126,-209,322,-1,-21,-62,78,0
0000000045,0000087956,70,-319,226,0,28,-82,49,-1
0000000046,0000089955,244,-322,45,3,68,-72,2,-2
0000000047,0000091954,321,-184,-154,3,80,-33,-45,-2
0000000048,0000093953,288,18,-298,3,65,18,-77,-1
0000000049,0000095952,126,210,-323,1,21,60,-76,1
0000000050,0000097951,-69,321,-226,0,-29,80,-47,3
0000000051,0000099950,-244,322,-45,-3,-68,71,0,4
0000000052,0000101949,-323,186,154,-4,-80,32,47,4
0000000053,0000103948,-288,-17,298,-2,-65,-19,78,3
0000000054,0000105947,-126,-210,323,-1,-21,-62,78,0
0000000055,0000107946,69,-319,226,1,28,-81,49,-2
0000000056,0000109945,244,-322,46,3,68,-72,2,-3
0000000057,0000111944,322,-185,-154,4,79,-33,-45,-3
0000000058,0000113943,288,17,-298,3,65,18,-77,-1
0000000059,0000115942,127,210,-323,1,21,61,-76,1
0000000060,0000117941,-69,320,-227,0,-28,80,-48,3
0000000061,0000119940,-244,323,-46,-2,-68,71,0,4
0000000062,0000121939,-323,186,154,-4,-80,31,46,4
0000000063,0000123938,-288,-16,298,-2,-65,-20,78,3
0000000064,0000125937,-128,-209,323,-1,-21,-62,78,0
0000000065,0000127936,69,-320,227,0,28,-81,49,-2
0000000066,0000129935,243,-322,46,2,68,-72,1,-3
0000000067,0000131934,322,-186,-154,3,80,-33,-45,-3
0000000068,0000133933,289,17,-298,3,64,18,-77,-2
0000000069,0000135932,128,210,-324,1,21,61,-76,1
0000000070,0000137931,-68,321,-227,0,-28,80,-47,3
0000000071,0000139930,-244,324,-46,-3,-68,70,-1,4
0000000072,0000141929,-323,187,153,-3,-80,31,47,5
0000000073,0000143928,-289,-17,298,-2,-65,-19,78,3
0000000074,0000145927,-128,-209,323,-1,-21,-62,78,0
0000000075,0000147926,69,-319,227,1,28,-81,49,-2
0000000076,0000149925,243,-323,47,3,68,-72,1,-3
0000000077,0000151924,322,-186,-153,4,80,-32,-44,-3
0000000078,0000153923,289,16,-298,2,64,18,-77,-2
0000000079,0000155922,128,209,-324,1,21,61,-76,1
0000000080,0000157921,-67,320,-227,0,-27,80,-47,3
0000000081,0000159920,-243,324,-47,-3,-67,70,1,4
0000000082,0000161919,-323,188,152,-4,-80,31,46,5
0000000083,0000163918,-288,-14,297,-3,-65,-20,79,3
0000000084,0000165917,-128,-208,323,-2,-22,-63,78,1
0000000085,0000167916,68,-319,228,1,28,-81,49,-2
0000000086,0000169915,284,-18,95,-241,55,-281,-8,265
0000000087,0000171914,291,-20,-161,-94,57,-384,-68,386
0000000088,0000173913,282,-9,-307,60,39,-299,-101,345
0000000089,0000175912,132,-2,-320,160,7,-39,-89,101
0000000090,0000177911,-82,18,-235,227,-16,263,-39,-225
0000000091,0000179910,-250,20,-47,211,-37,500,28,-508
0000000092,0000181909,-308,13,155,91,-34,511,86,-511
0000000093,0000183908,-278,8,303,-55,-20,457,116,-511
0000000094,0000185907,-125,0,328,-175,4,186,101,-268
0000000095,0000187906,80,-6,235,-246,28,-141,50,88
0000000096,0000189905,242,-13,44,-204,44,-389,-18,379
0000000097,0000191904,316,-9,-149,-95,42,-480,-78,511
0000000098,0000193903,278,0,-300,54,26,-377,-107,445
0000000099,0000195902,125,7,-331,182,0,-116,-93,184
0000000100,0000197901,-74,17,-228,231,-24,192,-43,-150
0000000101,0000199900,-241,19,-47,206,-41,428,25,-434
0000000102,0000201899,-310,12,152,94,-40,511,82,-511
0000000103,0000203898,-278,6,299,-50,-24,403,111,-483
0000000104,0000205897,-125,-2,331,-179,0,140,97,-216
0000000105,0000207896,74,-9,228,-236,26,-175,47,127
0000000106,0000209895,242,-16,46,-204,42,-418,-22,414
0000000107,0000211894,309,-8,-151,-90,40,-501,-80,511
0000000108,0000213893,278,-1,-298,53,24,-396,-110,469
0000000109,0000215892,125,6,-330,179,-2,-135,-95,208
0000000110,0000217891,-74,15,-227,233,-27,175,-44,-129
0000000111,0000219890,-241,18,-47,206,-43,413,24,-414
0000000112,0000221889,-308,11,152,91,-40,494,82,-511
0000000113,0000223888,-278,4,298,-48,-26,388,110,-466
0000000114,0000225887,-126,-4,330,-178,1,128,95,-202
0000000115,0000227886,74,-11,227,-234,26,-184,46,138
0000000116,0000229885,242,-17,46,-203,42,-425,-23,423
0000000117,0000231884,307,-9,-152,-88,40,-505,-81,511
0000000118,0000233883,278,-2,-298,52,24,-399,-110,476
0000000119,0000235882,122,5,-329,179,-2,-138,-95,212
0000000120,0000237881,-74,14,-227,233,-27,173,-44,-125
0000000121,0000239880,-241,18,-47,205,-43,411,25,-409
0000000122,0000241879,-307,11,152,91,-41,491,82,-511
0000000123,0000243878,-278,4,298,-50,-25,386,111,-461
0000000124,0000245877,-125,-3,328,-178,1,125,96,-198
0000000125,0000247876,74,-12,227,-234,26,-187,45,141
0000000126,0000249875,242,-16,46,-204,43,-426,-23,426
0000000127,0000251874,307,-9,-152,-88,40,-507,-82,511
0000000128,0000253873,277,-3,-297,52,25,-400,-111,477
0000000129,0000255872,124,6,-329,179,-1,-137,-96,215
0000000130,0000257871,-75,13,-226,233,-27,172,-44,-124
0000000131,0000259870,-242,17,-47,206,-44,412,24,-410
0000000132,0000261869,-307,10,152,90,-41,492,81,-511
0000000133,0000263868,-277,4,298,-50,-26,386,112,-462
0000000134,0000265867,-125,-4,328,-180,1,125,97,-198
0000000135,0000267866,75,-12,225,-234,26,-184,46,141
0000000136,0000269865,242,-16,45,-206,43,-426,-24,426
0000000137,0000271864,307,-9,-152,-88,41,-505,-82,511
0000000138,0000273863,277,-2,-298,52,25,-398,-111,476
0000000139,0000275862,123,6,-328,178,-2,-136,-96,213
0000000140,0000277861,-75,13,-226,234,-26,174,-44,-126
0000000141,0000279860,-242,18,-45,205,-44,414,26,-410
0000000142,0000281859,-308,14,153,92,-41,491,83,-511
0000000143,0000283858,-278,5,299,-50,-27,382,113,-458
0000000144,0000285857,-124,-5,329,-179,1,116,97,-189
0000000145,0000287856,67,-21,222,-225,29,-184,42,128
0000000146,0000289855,244,-19,52,-210,44,-407,-24,401
0000000147,0000291854,309,-16,-154,-91,42,-470,-84,511
0000000148,0000293853,280,-3,-298,44,26,-349,-113,426
0000000149,0000295852,123,8,-328,174,-1,-76,-97,148
0000000150,0000297851,-57,-4,-199,217,-22,43,-40,39
0000000151,0000299850,-289,0,-86,297,-42,39,29,-19
0000000152,0000301849,-318,2,141,132,-49,35,78,-63
0000000153,0000303848,-287,4,299,-51,-34,32,107,-102
0000000154,0000305847,-111,-26,334,-187,-1,29,91,-119
0000000155,0000307846,75,-35,238,-271,40,26,41,-102
0000000156,0000309845,309,5,59,-313,22,24,-22,-7
0000000157,0000311844,372,0,-181,-105,-8,23,-70,59
0000000158,0000313843,272,-3,-281,44,-7,22,-96,92
0000000159,0000315842,105,25,-347,206,-24,19,-73,81
0000000160,0000317841,-137,99,-243,236,-16,17,-23,18
0000000161,0000319840,-284,175,-47,116,-17,16,39,-42
0000000162,0000321839,-388,-16,202,120,17,14,45,-72
0000000163,0000323838,-273,4,410,-132,17,13,-13,-15
0000000164,0000325837,-106,-48,313,-160,36,11,0,-45
0000000165,0000327836,147,-114,218,-208,22,10,-20,-7
0000000166,0000329835,310,-189,-15,-87,13,9,-19,-1
0000000167,0000331834,361,-219,-230,79,-1,10,-8,3
0000000168,0000333833,299,-175,-364,217,-20,9,7,8
0000000169,0000335832,84,-70,-354,293,-28,8,25,-5
0000000170,0000337831,-148,52,-196,244,-19,8,29,-19
0000000171,0000339830,-310,145,20,110,-11,8,26,-24
0000000172,0000341829,-371,178,222,-56,8,6,23,-37
0000000173,0000343828,-294,202,375,-263,19,5,-1,-27
0000000174,0000345827,-88,224,349,-420,31,5,-14,-20
0000000175,0000347826,151,236,197,-489,22,4,-21,-3
0000000176,0000349825,314,227,-25,-401,12,4,-19,5
0000000177,0000351824,369,195,-230,-179,-4,3,-14,17
0000000178,0000353823,294,118,-377,48,-19,3,7,11
0000000179,0000355822,84,31,-350,249,-29,5,22,4
0000000180,0000357821,-156,-73,-192,356,-20,3,28,-14
0000000181,0000359820,-316,-101,30,312,-11,2,24,-18
0000000182,0000361819,-372,-82,230,155,6,3,19,-30
0000000183,0000363818,-290,-59,378,-56,20,2,-2,-23
0000000184,0000365817,-78,-37,353,-218,29,2,-18,-15
0000000185,0000367816,158,-26,192,-276,21,2,-24,3
0000000186,0000369815,319,-31,-30,-201,11,1,-20,9
0000000187,0000371814,371,-50,-232,-31,-4,1,-15,20
0000000188,0000373813,293,-80,-378,172,-20,1,6,15
0000000189,0000375812,81,-103,-352,330,-30,1,21,7
0000000190,0000377811,-158,-115,-192,394,-20,1,27,-11
0000000191,0000379810,-320,-110,31,326,-10,1,24,-16
0000000192,0000381809,-372,-91,233,158,5,1,17,-27
0000000193,0000383808,-291,-60,379,-60,21,1,-3,-20
0000000194,0000385807,-79,-34,351,-221,30,0,-18,-12
0000000195,0000387806,160,-19,191,-281,21,0,-24,6
0000000196,0000389805,321,-23,-34,-218,11,0,-21,11
0000000197,0000391804,372,-40,-235,-57,-6,0,-15,22
0000000198,0000393803,290,-69,-380,157,-20,0,6,16
0000000199,0000395802,76,-94,-350,326,-29,1,21,8
0000000200,0000397801,-162,-106,-189,380,-20,0,27,-10
0000000201,0000399800,-322,-100,35,291,-10,0,22,-14
0000000202,0000401799,-372,-78,238,96,6,0,18,-25
0000000203,0000403798,-290,-40,379,-112,21,0,-4,-19
0000000204,0000405797,-75,-5,349,-256,30,0,-19,-10
0000000205,0000407796,162,15,183,-307,21,0,-24,8
0000000206,0000409795,323,17,-39,-245,10,-2,-20,12
0000000207,0000411794,371,5,-238,-87,-6,0,-15,24
0000000208,0000413793,285,-17,-380,122,-20,0,6,17
0000000209,0000415792,70,-28,-349,278,-30,-1,21,8
0000000210,0000417791,-166,-23,-185,312,-20,0,27,-8
0000000211,0000419790,-323,2,39,205,-12,0,22,-14
0000000212,0000421789,-372,33,239,18,6,0,18,-24
0000000213,0000423788,-287,71,377,-184,21,0,-4,-18
0000000214,0000425787,-72,100,349,-334,30,0,-19,-9
0000000215,0000427786,165,112,183,-387,21,0,-25,8
0000000216,0000429785,323,106,-42,-322,10,-1,-20,13
0000000217,0000431784,371,85,-238,-154,-6,1,-15,24
0000000218,0000433783,285,55,-381,65,-20,-1,6,16
0000000219,0000435782,71,27,-349,227,-29,0,21,8
0000000220,0000437781,-166,14,-184,284,-19,0,27,-8
0000000221,0000439780,-324,19,41,216,-10,0,22,-13
0000000222,0000441779,-371,37,239,51,7,0,17,-24
0000000223,0000443778,-285,67,379,-161,20,-1,-4,-17
0000000224,0000445777,-69,92,348,-327,29,-1,-19,-8
0000000225,0000447776,167,104,182,-381,20,0,-25,9
0000000226,0000449775,324,98,-43,-300,10,0,-20,14
0000000227,0000451774,370,78,-238,-120,-6,-1,-15,24
0000000228,0000453773,284,47,-380,91,-21,0,6,17
0000000229,0000455772,69,19,-347,241,-29,0,21,9
0000000230,0000457771,-169,5,-180,289,-20,0,27,-8
0000000231,0000459770,-325,10,44,220,-9,-2,22,-13
0000000232,0000461769,-369,29,242,56,6,-1,16,-24
0000000233,0000463768,-281,55,380,-157,20,-1,-5,-16
0000000234,0000465767,-64,79,346,-322,29,-1,-20,-8
0000000235,0000467766,171,82,177,-354,20,-1,-25,10
0000000236,0000469765,325,61,-46,-238,9,-1,-19,14
0000000237,0000471764,367,22,-242,-32,-6,-1,-13,24
0000000238,0000473763,280,-26,-381,166,-20,-1,7,16
0000000239,0000475762,66,-60,-343,305,-30,0,21,9
0000000240,0000477761,-172,-76,-172,353,-20,0,26,-8
0000000241,0000479760,-326,-73,47,289,-9,0,22,-13
0000000242,0000481759,-367,-54,242,123,6,1,17,-24
0000000243,0000483758,-277,-26,379,-91,20,-1,-5,-14
0000000244,0000485757,-62,0,343,-253,29,-1,-20,-7
0000000245,0000487756,171,11,175,-302,20,-1,-25,10
0000000246,0000489755,325,4,-47,-222,9,0,-19,14
0000000247,0000491754,368,-15,-242,-48,-6,-1,-14,24
0000000248,0000493753,279,-45,-379,159,-21,0,6,17
0000000249,0000495752,63,-71,-342,310,-28,-1,21,8
0000000250,0000497751,-171,-80,-174,361,-20,0,26,-9
0000000251,0000499750,-325,-74,48,289,-9,-1,21,-13
0000000252,0000501749,-369,-55,243,120,6,0,16,-24
0000000253,0000503748,-277,-25,379,-95,21,-2,-6,-16
0000000254,0000505747,-60,2,341,-252,28,-1,-20,-7
0000000255,0000507746,171,13,173,-302,19,-1,-25,9
0000000256,0000509745,325,7,-49,-233,9,-1,-20,14
0000000257,0000511744,367,-11,-245,-63,-7,-1,-15,24
0000000258,0000513743,276,-39,-380,147,-22,-1,7,16
0000000259,0000515742,60,-64,-339,306,-29,0,21,8
0000000260,0000517741,-174,-76,-171,357,-18,-1,27,-8
0000000261,0000519740,-325,-69,50,277,-9,0,21,-13
0000000262,0000521739,-367,-50,245,101,6,0,16,-24
0000000263,0000523738,-276,-20,379,-108,22,-1,-6,-16
0000000264,0000525737,-58,5,339,-259,29,0,-19,-6
0000000265,0000527736,175,17,169,-305,19,-1,-25,9
0000000266,0000529735,327,11,-51,-235,9,-1,-19,15
0000000267,0000531734,367,-8,-246,-66,-7,-1,-13,24
0000000268,0000533733,272,-35,-380,146,-21,0,8,16
0000000269,0000535732,57,-60,-338,304,-29,-1,22,8
0000000270,0000537731,-176,-71,-167,350,-19,0,26,-9
0000000271,0000539730,-327,-65,54,261,-9,-1,21,-14
0000000272,0000541729,-365,-45,247,76,7,0,15,-23
0000000273,0000543728,-272,-14,379,-127,21,0,-7,-15
0000000274,0000545727,-55,12,337,-269,29,0,-19,-7
0000000275,0000547726,176,24,164,-307,19,0,-24,9
0000000276,0000549725,328,18,-57,-237,9,-1,-19,15
0000000277,0000551724,365,-1,-248,-69,-7,-1,-15,25
0000000278,0000553723,269,-29,-380,144,-21,-1,8,16
0000000279,0000555722,52,-51,-336,301,-28,0,21,8
0000000280,0000557721,-179,-59,-163,337,-19,-1,27,-9
0000000281,0000559720,-328,-48,57,238,-8,0,21,-14
0000000282,0000561719,-365,-21,249,46,7,0,16,-23
0000000283,0000563718,-270,16,379,-154,22,0,-6,-15
0000000284,0000565717,-50,45,334,-296,28,0,-19,-6
0000000285,0000567716,179,57,161,-335,17,-1,-25,10
0000000286,0000569715,328,50,-59,-262,8,0,-19,15
0000000287,0000571714,364,31,-250,-93,-7,-1,-13,25
0000000288,0000573713,266,2,-380,117,-22,0,9,17
0000000289,0000575712,48,-22,-334,272,-28,-1,21,9
0000000290,0000577711,-182,-29,-161,314,-19,-1,27,-9
0000000291,0000579710,-330,-19,59,225,-8,0,21,-14
0000000292,0000581709,-364,4,252,43,7,-1,16,-23
0000000293,0000583708,-266,34,379,-159,21,-1,-7,-15
0000000294,0000585707,-48,58,332,-305,28,-1,-21,-7
0000000295,0000587706,181,69,159,-346,19,-1,-25,10
0000000296,0000589705,330,61,-60,-272,7,-1,-19,15
0000000297,0000591704,363,41,-253,-97,-7,-1,-14,25
0000000298,0000593703,266,11,-382,113,-22,-1,9,16
0000000299,0000595702,47,-14,-332,265,-28,-1,21,8
0000000300,0000597701,-185,-25,-158,311,-18,0,27,-8
0000000301,0000599700,-332,-17,63,230,-7,0,21,-14
0000000302,0000601699,-364,3,254,53,7,-1,16,-23
0000000303,0000603698,-265,31,381,-153,22,-1,-7,-15
0000000304,0000605697,-44,54,331,-303,27,0,-20,-6
0000000305,0000607696,184,65,155,-344,19,-1,-24,10
0000000306,0000609695,331,58,-64,-265,8,-1,-19,15
0000000307,0000611694,364,39,-254,-89,-7,-1,-14,24
0000000308,0000613693,264,8,-382,121,-22,-1,9,17
0000000309,0000615692,43,-16,-331,267,-29,0,22,7
0000000310,0000617691,-186,-26,-153,309,-18,0,28,-9
0000000311,0000619690,-332,-19,65,232,-7,0,20,-14
0000000312,0000621689,-364,1,255,59,8,-1,15,-23
0000000313,0000623688,-264,29,381,-151,22,0,-6,-15
0000000314,0000625687,-41,53,331,-304,28,-1,-20,-6
0000000315,0000627686,187,63,151,-342,18,-1,-26,10
0000000316,0000629685,333,56,-67,-256,7,-1,-18,15
0000000317,0000631684,362,37,-256,-77,-8,-1,-14,24
0000000318,0000633683,262,6,-381,130,-22,-2,9,16
0000000319,0000635682,40,-18,-329,274,-28,0,22,7
0000000320,0000637681,-188,-28,-151,310,-18,0,27,-9
0000000321,0000639680,-332,-20,68,232,-7,0,21,-14
0000000322,0000641679,-362,0,257,59,7,0,15,-23
0000000323,0000643678,-260,29,380,-151,22,-1,-7,-15
0000000324,0000645677,-39,51,329,-303,29,0,-20,-5
0000000325,0000647676,190,61,150,-339,19,-1,-25,10
0000000326,0000649675,333,54,-70,-248,7,0,-18,15
0000000327,0000651674,361,34,-258,-63,-7,-1,-13,25
0000000328,0000653673,259,3,-381,137,-22,0,10,16
0000000329,0000655672,37,-21,-327,277,-28,0,22,7
0000000330,0000657671,-190,-30,-148,309,-19,-1,27,-9
0000000331,0000659670,-334,-22,70,231,-7,-1,20,-15
0000000332,0000661669,-361,-1,259,58,8,0,17,-23
0000000333,0000663668,-258,26,380,-151,22,-1,-7,-14
0000000334,0000665667,-35,49,326,-303,28,-1,-21,-5
0000000335,0000667666,191,58,147,-334,18,-1,-25,10
0000000336,0000669665,334,50,-71,-238,7,0,-17,15
0000000337,0000671664,360,28,-260,-51,-8,0,-13,24
0000000338,0000673663,256,-3,-380,147,-22,-1,9,16
0000000339,0000675662,34,-27,-324,283,-28,-1,22,6
0000000340,0000677661,-191,-36,-145,313,-18,0,26,-8
0000000341,0000679660,-333,-28,72,235,-6,0,20,-14
0000000342,0000681659,-359,-7,259,61,7,0,15,-23
0000000343,0000683658,-254,21,380,-149,22,-1,-8,-15
0000000344,0000685657,-32,42,324,-298,28,-1,-21,-5
0000000345,0000687656,192,48,145,-325,18,0,-25,10
0000000346,0000689655,333,37,-73,-228,7,-1,-18,17
0000000347,0000691654,358,14,-260,-39,-8,-1,-13,24
0000000348,0000693653,255,-19,-379,160,-22,-1,10,15
0000000349,0000695652,33,-44,-323,296,-28,0,22,7
0000000350,0000697651,-193,-53,-142,326,-18,0,27,-9
0000000351,0000699650,-333,-45,74,247,-7,-1,17,-14
0000000352,0000701649,-357,-25,260,73,8,-1,15,-23
0000000353,0000703648,-252,5,379,-134,23,0,-8,-14
0000000354,0000705647,-30,26,323,-284,28,-1,-20,-5
0000000355,0000707646,193,33,143,-313,18,-1,-25,10
0000000356,0000709645,334,23,-75,-220,6,1,-18,15
0000000357,0000711644,357,2,-261,-36,-8,-1,-13,25
0000000358,0000713643,252,-30,-379,165,-22,0,10,15
0000000359,0000715642,31,-53,-322,303,-28,0,22,6
0000000360,0000717641,-193,-61,-142,335,-18,0,26,-9
0000000361,0000719640,-335,-53,75,253,-6,-1,20,-15
0000000362,0000721639,-355,-32,261,76,8,0,13,-23
0000000363,0000723638,-251,-2,378,-129,22,-1,-8,-15
0000000364,0000725637,-29,21,321,-275,28,-1,-21,-5
0000000365,0000727636,194,29,142,-309,18,-1,-25,10
0000000366,0000729635,334,21,-76,-222,6,-1,-18,15
0000000367,0000731634,356,0,-261,-43,-7,1,-13,24
0000000368,0000733633,250,-29,-379,160,-22,-1,10,16
